
T2084 000:359 SEGGER J-Link V5.02f Log File (0001ms, 0287ms total)
T2084 000:359 DLL Compiled: Oct  2 2015 20:51:34 (0001ms, 0287ms total)
T2084 000:359 Logging started @ 2018-08-14 16:02 (0001ms, 0287ms total)
T2084 000:360 JLINK_SetWarnOutHandler(...) (0000ms, 0287ms total)
T2084 000:360 JLINK_OpenEx(...)
Firmware: J-Link ARM V8 compiled Nov 28 2014 13:44:46
Hardware: V8.00
S/N: 1701138512
Feature(s): RDI,FlashDL,FlashBP,JFlash,GDBFull  returns O.K. (0282ms, 0569ms total)
T2084 000:642 JLINK_SetErrorOutHandler(...) (0000ms, 0569ms total)
T2084 000:642 JLINK_ExecCommand("ProjectFile = "D:\AliOS\AliOS-FM-rel_1.3.2\projects\Keil\FM33A0xx_Discovery\certificatetest\JLinkSettings.ini"", ...)Device "CORTEX-M0" selected.  returns 0x00 (0003ms, 0572ms total)
T2084 000:645 JLINK_ExecCommand("Device = FM33A04XX", ...)Device "CORTEX-M0" selected.  returns 0x00 (0005ms, 0577ms total)
T2084 000:650 JLINK_ExecCommand("DisableConnectionTimeout", ...)  returns 0x01 (0000ms, 0577ms total)
T2084 000:650 JLINK_GetHardwareVersion()  returns 0x13880 (0000ms, 0577ms total)
T2084 000:650 JLINK_GetDLLVersion()  returns 50206 (0000ms, 0577ms total)
T2084 000:650 JLINK_GetFirmwareString(...) (0000ms, 0577ms total)
T2084 000:651 JLINK_GetDLLVersion()  returns 50206 (0000ms, 0577ms total)
T2084 000:651 JLINK_GetCompileDateTime() (0000ms, 0577ms total)
T2084 000:651 JLINK_GetFirmwareString(...) (0000ms, 0577ms total)
T2084 000:652 JLINK_GetHardwareVersion()  returns 0x13880 (0000ms, 0577ms total)
T2084 000:661 JLINK_TIF_Select(JLINKARM_TIF_SWD)  returns 0x00 (0004ms, 0581ms total)
T2084 000:665 JLINK_SetSpeed(2000) (0001ms, 0582ms total)
T2084 000:666 JLINK_GetId() >0x108 TIF>Found SWD-DP with ID 0x0BB11477 >0x0D TIF> >0x21 TIF> >0x0D TIF> >0x28 TIF> >0x0D TIF> >0x28 TIF> >0x0D TIF> >0x21 TIF> >0x0D TIF> >0x28 TIF> >0x0D TIF> >0x21 TIF> >0x0D TIF> >0x21 TIF> >0x0D TIF> >0x21 TIF> >0x0D TIF> >0x21 TIF> >0x0D TIF> >0x28 TIF> >0x0D TIF> >0x28 TIF> >0x0D TIF> >0x21 TIF> >0x0D TIF> >0x28 TIF> >0x0D TIF> >0x28 TIF> >0x0D TIF> >0x28 TIF> >0x0D TIF> >0x21 TIF> >0x0D TIF> >0x21 TIF> >0x0D TIF> >0x28 TIF> >0x0D TIF> >0x21 TIF> >0x0D TIF>
 >0x21 TIF>Found Cortex-M0 r0p0, Little endian. -- CPU_ReadMem(4 bytes @ 0xE000EDF0) -- CPU_WriteMem(4 bytes @ 0xE000EDF0) -- CPU_ReadMem(4 bytes @ 0xE0002000)FPUnit: 4 code (BP) slots and 0 literal slots -- CPU_ReadMem(4 bytes @ 0xE000EDFC) -- CPU_WriteMem(4 bytes @ 0xE000EDFC) -- CPU_ReadMem(4 bytes @ 0xE0001000) -- CPU_WriteMem(4 bytes @ 0xE0001000)CoreSight components:ROMTbl 0 @ E00FF000 -- CPU_ReadMem(16 bytes @ 0xE00FF000) -- CPU_ReadMem(16 bytes @ 0xE000EFF0) -- CPU_ReadMem(16 bytes @ 0xE000EFE0)
ROMTbl 0 [0]: FFF0F000, CID: B105E00D, PID: 000BB00D SCS -- CPU_ReadMem(16 bytes @ 0xE0001FF0) -- CPU_ReadMem(16 bytes @ 0xE0001FE0)ROMTbl 0 [1]: FFF02000, CID: B105E00D, PID: 000BB00A DWT -- CPU_ReadMem(16 bytes @ 0xE0002FF0) -- CPU_ReadMem(16 bytes @ 0xE0002FE0)ROMTbl 0 [2]: FFF03000, CID: B105E00D, PID: 000BB00B FPB >0x0D TIF> >0x21 TIF>  returns 0x0BB11477 (0066ms, 0648ms total)
T2084 000:732 JLINK_GetDLLVersion()  returns 50206 (0000ms, 0648ms total)
T2084 000:732 JLINK_CORE_GetFound()  returns 0x60000FF (0000ms, 0648ms total)
T2084 000:732 JLINK_GetDebugInfo(0x100) -- Value=0xE00FF003  returns 0x00 (0000ms, 0648ms total)
T2084 000:732 JLINK_GetDebugInfo(0x100) -- Value=0xE00FF003  returns 0x00 (0000ms, 0648ms total)
T2084 000:732 JLINK_GetDebugInfo(0x101) -- Value=0x00000000  returns 0x00 (0000ms, 0648ms total)
T2084 000:732 JLINK_ReadMem (0xE0041FF0, 0x0010 Bytes, ...) -- CPU is running -- CPU_ReadMem(16 bytes @ 0xE0041FF0) - Data: 00 00 00 00 00 00 00 00 00 00 00 00 00 00 00 00  returns 0x00 (0001ms, 0649ms total)
T2084 000:733 JLINK_GetDebugInfo(0x102) -- Value=0x00000000  returns 0x00 (0000ms, 0649ms total)
T2084 000:733 JLINK_GetDebugInfo(0x103) -- Value=0x00000000  returns 0x00 (0000ms, 0649ms total)
T2084 000:733 JLINK_ReadMem (0xE0040FF0, 0x0010 Bytes, ...) -- CPU is running -- CPU_ReadMem(16 bytes @ 0xE0040FF0) - Data: 00 00 00 00 00 00 00 00 00 00 00 00 00 00 00 00  returns 0x00 (0001ms, 0650ms total)
T2084 000:734 JLINK_GetDebugInfo(0x104) -- Value=0xE0000000  returns 0x00 (0000ms, 0650ms total)
T2084 000:734 JLINK_GetDebugInfo(0x105) -- Value=0xE0001000  returns 0x00 (0000ms, 0650ms total)
T2084 000:734 JLINK_GetDebugInfo(0x106) -- Value=0xE0002000  returns 0x00 (0000ms, 0650ms total)
T2084 000:734 JLINK_GetDebugInfo(0x107) -- Value=0xE000E000  returns 0x00 (0000ms, 0650ms total)
T2084 000:734 JLINK_GetDebugInfo(0x10C) -- Value=0xE000EDF0  returns 0x00 (0000ms, 0650ms total)
T2084 000:734 JLINK_ReadMemU32(0xE000ED00, 0x0001 Items, ...) -- CPU is running -- CPU_ReadMem(4 bytes @ 0xE000ED00) - Data: 00 C3 0C 41  returns 0x01 (0001ms, 0651ms total)
T2084 000:735 JLINK_SetResetType(JLINKARM_RESET_TYPE_ADI)  returns JLINKARM_RESET_TYPE_NORMAL (0000ms, 0651ms total)
T2084 000:735 JLINK_Reset() -- CPU is running -- CPU_WriteMem(4 bytes @ 0xE000EDF0) -- CPU is running -- CPU_WriteMem(4 bytes @ 0xE000EDFC) -- CPU_WriteMem(4 bytes @ 0xE000EDF0) -- CPU_WriteMem(4 bytes @ 0xE000EDFC) -- CPU_ReadMem(4 bytes @ 0xE000EDF0) -- CPU_WriteMem(4 bytes @ 0xE000EDFC) -- CPU_WriteMem(4 bytes @ 0xE000ED0C) -- CPU_ReadMem(4 bytes @ 0xE000EDF0) -- CPU_ReadMem(4 bytes @ 0xE000EDF0) -- CPU_WriteMem(4 bytes @ 0xE000EDF0) -- CPU_WriteMem(4 bytes @ 0xE000EDFC) -- CPU is running
 -- CPU_ReadMem(4 bytes @ 0xE000EDF0) -- CPU_WriteMem(4 bytes @ 0xE0002000) -- CPU_ReadMem(4 bytes @ 0xE000EDFC) -- CPU_ReadMem(4 bytes @ 0xE0001000) -- CPU_WriteMem(4 bytes @ 0xE0001000) (0166ms, 0817ms total)
T2084 000:901 JLINK_ReadReg(R15 (PC))  returns 0x00000180 (0000ms, 0817ms total)
T2084 000:901 JLINK_ReadReg(XPSR)  returns 0xC1000000 (0000ms, 0817ms total)
T2084 000:901 JLINK_Halt()  returns 0x00 (0000ms, 0817ms total)
T2084 000:901 JLINK_IsHalted()  returns TRUE (0000ms, 0817ms total)
T2084 000:901 JLINK_ReadMemU32(0xE000EDF0, 0x0001 Items, ...) -- CPU_ReadMem(4 bytes @ 0xE000EDF0) - Data: 03 00 03 00  returns 0x01 (0001ms, 0818ms total)
T2084 000:902 JLINK_WriteU32(0xE000EDF0, 0xA05F0003) -- CPU_WriteMem(4 bytes @ 0xE000EDF0)  returns 0x00 (0001ms, 0819ms total)
T2084 000:903 JLINK_WriteU32(0xE000EDFC, 0x01000000) -- CPU_WriteMem(4 bytes @ 0xE000EDFC)  returns 0x00 (0001ms, 0820ms total)
T2084 000:905 JLINK_GetHWStatus(...)  returns 0x00 (0001ms, 0821ms total)
T2084 000:906 JLINK_GetNumBPUnits(Type = 0xFFFFFF00)  returns 0x04 (0000ms, 0821ms total)
T2084 000:906 JLINK_GetNumBPUnits(Type = 0xF0)  returns 0x2000 (0000ms, 0821ms total)
T2084 000:906 JLINK_GetNumWPUnits()  returns 0x01 (0000ms, 0821ms total)
T2084 000:907 JLINK_GetSpeed()  returns 0x7D0 (0000ms, 0821ms total)
T2084 000:907 JLINK_ReadMemU32(0xE000E004, 0x0001 Items, ...) -- CPU_ReadMem(4 bytes @ 0xE000E004) - Data: 00 00 00 00  returns 0x01 (0001ms, 0822ms total)
T2084 000:908 JLINK_ReadReg(R15 (PC))  returns 0x00000180 (0000ms, 0822ms total)
T2084 000:908 JLINK_ReadReg(XPSR)  returns 0xC1000000 (0000ms, 0822ms total)
T2084 001:003 JLINK_SetResetType(JLINKARM_RESET_TYPE_ADI)  returns JLINKARM_RESET_TYPE_ADI (0000ms, 0822ms total)
T2084 001:003 JLINK_Reset() -- CPU_WriteMem(4 bytes @ 0xE000EDF0) -- CPU_WriteMem(4 bytes @ 0xE000EDFC) -- CPU_WriteMem(4 bytes @ 0xE000EDF0) -- CPU_WriteMem(4 bytes @ 0xE000EDFC) -- CPU_ReadMem(4 bytes @ 0xE000EDF0) -- CPU_WriteMem(4 bytes @ 0xE000EDFC) -- CPU_WriteMem(4 bytes @ 0xE000ED0C) -- CPU_ReadMem(4 bytes @ 0xE000EDF0) -- CPU_ReadMem(4 bytes @ 0xE000EDF0) -- CPU_WriteMem(4 bytes @ 0xE000EDF0) -- CPU_WriteMem(4 bytes @ 0xE000EDFC) -- CPU is running -- CPU_ReadMem(4 bytes @ 0xE000EDF0)
 -- CPU_WriteMem(4 bytes @ 0xE0002000) -- CPU_ReadMem(4 bytes @ 0xE000EDFC) -- CPU_ReadMem(4 bytes @ 0xE0001000) -- CPU_WriteMem(4 bytes @ 0xE0001000) (0165ms, 0987ms total)
T2084 001:168 JLINK_ReadReg(R15 (PC))  returns 0x00000180 (0000ms, 0987ms total)
T2084 001:168 JLINK_ReadReg(XPSR)  returns 0xC1000000 (0000ms, 0987ms total)
T2084 001:169 JLINK_ReadMem (0x00000180, 0x003C Bytes, ...) -- CPU_ReadMem(60 bytes @ 0x00000180) - Data: 04 48 80 47 04 48 00 47 FE E7 FE E7 FE E7 FE E7 ...  returns 0x00 (0001ms, 0988ms total)
T15D4 002:539 JLINK_SetBPEx(Addr = 0x0000BD08, Type = 0xFFFFFFF2)  returns 0x00000001 (0001ms, 0989ms total)
T15D4 002:541 JLINK_Go() -- CPU_WriteMem(4 bytes @ 0xE0002000) -- CPU_ReadMem(4 bytes @ 0xE0001000) -- CPU_WriteMem(4 bytes @ 0xE0001000) -- CPU_WriteMem(4 bytes @ 0xE0002008) -- CPU_WriteMem(4 bytes @ 0xE000200C) -- CPU_WriteMem(4 bytes @ 0xE0002010) -- CPU_WriteMem(4 bytes @ 0xE0002014) -- CPU_WriteMem(4 bytes @ 0xE0001004) (0009ms, 0998ms total)
T15D4 002:651 JLINK_IsHalted()  returns TRUE (0004ms, 1003ms total)
T15D4 002:655 JLINK_Halt()  returns 0x00 (0000ms, 0999ms total)
T15D4 002:655 JLINK_IsHalted()  returns TRUE (0000ms, 0999ms total)
T15D4 002:655 JLINK_IsHalted()  returns TRUE (0000ms, 0999ms total)
T15D4 002:655 JLINK_IsHalted()  returns TRUE (0000ms, 0999ms total)
T15D4 002:655 JLINK_ReadReg(R15 (PC))  returns 0x0000BD08 (0000ms, 0999ms total)
T15D4 002:655 JLINK_ReadReg(XPSR)  returns 0x61000000 (0000ms, 0999ms total)
T15D4 002:655 JLINK_ClrBPEx(BPHandle = 0x00000001)  returns 0x00 (0000ms, 0999ms total)
T15D4 002:655 JLINK_ReadMemU32(0xE000ED30, 0x0001 Items, ...) -- CPU_ReadMem(4 bytes @ 0xE000ED30) - Data: 02 00 00 00  returns 0x01 (0001ms, 1000ms total)
T15D4 002:656 JLINK_ReadMemU32(0xE0001028, 0x0001 Items, ...) -- CPU_ReadMem(4 bytes @ 0xE0001028) - Data: 00 00 00 00  returns 0x01 (0001ms, 1001ms total)
T15D4 002:657 JLINK_ReadReg(R0)  returns 0x0000BD09 (0000ms, 1001ms total)
T15D4 002:657 JLINK_ReadReg(R1)  returns 0x20007C50 (0000ms, 1001ms total)
T15D4 002:657 JLINK_ReadReg(R2)  returns 0x00000000 (0000ms, 1001ms total)
T15D4 002:657 JLINK_ReadReg(R3)  returns 0x00001F03 (0000ms, 1001ms total)
T15D4 002:657 JLINK_ReadReg(R4)  returns 0x0000E54C (0000ms, 1001ms total)
T15D4 002:657 JLINK_ReadReg(R5)  returns 0x00000001 (0000ms, 1001ms total)
T15D4 002:657 JLINK_ReadReg(R6)  returns 0x0000E54C (0000ms, 1001ms total)
T15D4 002:657 JLINK_ReadReg(R7)  returns 0x00000001 (0000ms, 1001ms total)
T15D4 002:657 JLINK_ReadReg(R8)  returns 0x08080808 (0000ms, 1001ms total)
T15D4 002:657 JLINK_ReadReg(R9)  returns 0x09090909 (0000ms, 1001ms total)
T15D4 002:657 JLINK_ReadReg(R10)  returns 0x10101010 (0000ms, 1001ms total)
T15D4 002:657 JLINK_ReadReg(R11)  returns 0x11111111 (0000ms, 1001ms total)
T15D4 002:657 JLINK_ReadReg(R12)  returns 0x00002B58 (0000ms, 1001ms total)
T15D4 002:657 JLINK_ReadReg(R13 (SP))  returns 0x20007C50 (0000ms, 1001ms total)
T15D4 002:657 JLINK_ReadReg(R14)  returns 0x00000A5D (0000ms, 1001ms total)
T15D4 002:657 JLINK_ReadReg(R15 (PC))  returns 0x0000BD08 (0000ms, 1001ms total)
T15D4 002:657 JLINK_ReadReg(XPSR)  returns 0x61000000 (0000ms, 1001ms total)
T15D4 002:657 JLINK_ReadReg(MSP)  returns 0x20007C50 (0000ms, 1001ms total)
T15D4 002:657 JLINK_ReadReg(PSP)  returns 0x20002C10 (0000ms, 1001ms total)
T15D4 002:657 JLINK_ReadReg(CFBP)  returns 0x00000000 (0000ms, 1001ms total)
T2084 002:662 JLINK_ReadMem (0x0000BD08, 0x003C Bytes, ...) -- CPU_ReadMem(128 bytes @ 0x0000BD00) -- Updating DA cache (128 bytes @ 0x0000BD00) -- Read from DA cache (60 bytes @ 0x0000BD08) - Data: 10 B5 00 F0 47 FE 00 20 10 BD 10 B5 F7 F7 B4 FA ...  returns 0x00 (0002ms, 1003ms total)
T2084 004:142 JLINK_SetResetType(JLINKARM_RESET_TYPE_ADI)  returns JLINKARM_RESET_TYPE_ADI (0000ms, 1003ms total)
T2084 004:142 JLINK_Reset() -- CPU_WriteMem(4 bytes @ 0xE000EDF0) -- CPU_WriteMem(4 bytes @ 0xE000EDFC) -- CPU_WriteMem(4 bytes @ 0xE000EDF0) -- CPU_WriteMem(4 bytes @ 0xE000EDFC) -- CPU_ReadMem(4 bytes @ 0xE000EDF0) -- CPU_WriteMem(4 bytes @ 0xE000EDFC) -- CPU_WriteMem(4 bytes @ 0xE000ED0C) -- CPU_ReadMem(4 bytes @ 0xE000EDF0) -- CPU_ReadMem(4 bytes @ 0xE000EDF0) -- CPU_WriteMem(4 bytes @ 0xE000EDF0) -- CPU_WriteMem(4 bytes @ 0xE000EDFC) -- CPU is running -- CPU_ReadMem(4 bytes @ 0xE000EDF0)
 -- CPU_WriteMem(4 bytes @ 0xE0002000) -- CPU_ReadMem(4 bytes @ 0xE000EDFC) -- CPU_ReadMem(4 bytes @ 0xE0001000) -- CPU_WriteMem(4 bytes @ 0xE0001000) (0169ms, 1172ms total)
T2084 004:311 JLINK_ReadReg(R15 (PC))  returns 0x00000180 (0000ms, 1172ms total)
T2084 004:311 JLINK_ReadReg(XPSR)  returns 0xC1000000 (0000ms, 1172ms total)
T2084 004:312 JLINK_ReadMem (0x00000180, 0x003C Bytes, ...) -- CPU_ReadMem(60 bytes @ 0x00000180) - Data: 04 48 80 47 04 48 00 47 FE E7 FE E7 FE E7 FE E7 ...  returns 0x00 (0002ms, 1174ms total)
T2084 004:385 JLINK_SetResetType(JLINKARM_RESET_TYPE_ADI)  returns JLINKARM_RESET_TYPE_ADI (0000ms, 1174ms total)
T2084 004:385 JLINK_Reset() -- CPU_WriteMem(4 bytes @ 0xE000EDF0) -- CPU_WriteMem(4 bytes @ 0xE000EDFC) -- CPU_WriteMem(4 bytes @ 0xE000EDF0) -- CPU_WriteMem(4 bytes @ 0xE000EDFC) -- CPU_ReadMem(4 bytes @ 0xE000EDF0) -- CPU_WriteMem(4 bytes @ 0xE000EDFC) -- CPU_WriteMem(4 bytes @ 0xE000ED0C) -- CPU_ReadMem(4 bytes @ 0xE000EDF0) -- CPU_ReadMem(4 bytes @ 0xE000EDF0) -- CPU_WriteMem(4 bytes @ 0xE000EDF0) -- CPU_WriteMem(4 bytes @ 0xE000EDFC) -- CPU is running -- CPU_ReadMem(4 bytes @ 0xE000EDF0)
 -- CPU_WriteMem(4 bytes @ 0xE0002000) -- CPU_ReadMem(4 bytes @ 0xE000EDFC) -- CPU_ReadMem(4 bytes @ 0xE0001000) -- CPU_WriteMem(4 bytes @ 0xE0001000) (0164ms, 1338ms total)
T2084 004:549 JLINK_ReadReg(R15 (PC))  returns 0x00000180 (0000ms, 1338ms total)
T2084 004:549 JLINK_ReadReg(XPSR)  returns 0xC1000000 (0000ms, 1338ms total)
T2084 007:331 JLINK_ReadMem (0x00004A16, 0x0002 Bytes, ...) -- CPU_ReadMem(2 bytes @ 0x00004A16) - Data: 06 48  returns 0x00 (0003ms, 1341ms total)
T2084 007:334 JLINK_ReadMem (0x00004A18, 0x003C Bytes, ...) -- CPU_ReadMem(60 bytes @ 0x00004A18) - Data: FE F7 E6 F8 FE F7 38 FE 01 46 04 A0 00 F0 5E FA ...  returns 0x00 (0002ms, 1343ms total)
T2084 061:947 JLINK_SetResetType(JLINKARM_RESET_TYPE_ADI)  returns JLINKARM_RESET_TYPE_ADI (0000ms, 1343ms total)
T2084 061:947 JLINK_Reset() -- CPU_WriteMem(4 bytes @ 0xE000EDF0) -- CPU_WriteMem(4 bytes @ 0xE000EDFC) -- CPU_WriteMem(4 bytes @ 0xE000EDF0) -- CPU_WriteMem(4 bytes @ 0xE000EDFC) -- CPU_ReadMem(4 bytes @ 0xE000EDF0) -- CPU_WriteMem(4 bytes @ 0xE000EDFC) -- CPU_WriteMem(4 bytes @ 0xE000ED0C) -- CPU_ReadMem(4 bytes @ 0xE000EDF0) -- CPU_ReadMem(4 bytes @ 0xE000EDF0) -- CPU_WriteMem(4 bytes @ 0xE000EDF0) -- CPU_WriteMem(4 bytes @ 0xE000EDFC) -- CPU is running -- CPU_ReadMem(4 bytes @ 0xE000EDF0)
 -- CPU_WriteMem(4 bytes @ 0xE0002000) -- CPU_ReadMem(4 bytes @ 0xE000EDFC) -- CPU_ReadMem(4 bytes @ 0xE0001000) -- CPU_WriteMem(4 bytes @ 0xE0001000) (0166ms, 1509ms total)
T2084 062:113 JLINK_ReadReg(R15 (PC))  returns 0x00000180 (0000ms, 1509ms total)
T2084 062:113 JLINK_ReadReg(XPSR)  returns 0xC1000000 (0000ms, 1509ms total)
T15D4 064:238 JLINK_Step() -- CPU_ReadMem(2 bytes @ 0x00000180) -- Not simulated -- CPU_WriteMem(4 bytes @ 0xE0002008) -- CPU_WriteMem(4 bytes @ 0xE000200C) -- CPU_WriteMem(4 bytes @ 0xE0002010) -- CPU_WriteMem(4 bytes @ 0xE0002014) -- CPU_WriteMem(4 bytes @ 0xE0001004)  returns 0x00 (0013ms, 1522ms total)
T15D4 064:251 JLINK_ReadReg(R15 (PC))  returns 0x00000182 (0001ms, 1523ms total)
T15D4 064:252 JLINK_ReadReg(XPSR)  returns 0xC1000000 (0000ms, 1523ms total)
T15D4 064:252 JLINK_ReadReg(R0)  returns 0x00001965 (0000ms, 1523ms total)
T15D4 064:252 JLINK_ReadReg(R1)  returns 0x20007C50 (0000ms, 1523ms total)
T15D4 064:252 JLINK_ReadReg(R2)  returns 0x00000000 (0000ms, 1523ms total)
T15D4 064:252 JLINK_ReadReg(R3)  returns 0x00001F03 (0000ms, 1523ms total)
T15D4 064:252 JLINK_ReadReg(R4)  returns 0x0000E54C (0000ms, 1523ms total)
T15D4 064:252 JLINK_ReadReg(R5)  returns 0x00000001 (0000ms, 1523ms total)
T15D4 064:252 JLINK_ReadReg(R6)  returns 0x0000E54C (0000ms, 1523ms total)
T15D4 064:252 JLINK_ReadReg(R7)  returns 0x00000001 (0000ms, 1523ms total)
T15D4 064:252 JLINK_ReadReg(R8)  returns 0x08080808 (0000ms, 1523ms total)
T15D4 064:252 JLINK_ReadReg(R9)  returns 0x09090909 (0000ms, 1523ms total)
T15D4 064:252 JLINK_ReadReg(R10)  returns 0x10101010 (0000ms, 1523ms total)
T15D4 064:252 JLINK_ReadReg(R11)  returns 0x11111111 (0000ms, 1523ms total)
T15D4 064:252 JLINK_ReadReg(R12)  returns 0x00002B58 (0000ms, 1523ms total)
T15D4 064:252 JLINK_ReadReg(R13 (SP))  returns 0x20007C50 (0000ms, 1523ms total)
T15D4 064:252 JLINK_ReadReg(R14)  returns 0x00000A5D (0000ms, 1523ms total)
T15D4 064:252 JLINK_ReadReg(R15 (PC))  returns 0x00000182 (0000ms, 1523ms total)
T15D4 064:252 JLINK_ReadReg(XPSR)  returns 0xC1000000 (0000ms, 1523ms total)
T15D4 064:252 JLINK_ReadReg(MSP)  returns 0x20007C50 (0000ms, 1523ms total)
T15D4 064:252 JLINK_ReadReg(PSP)  returns 0x20002C10 (0000ms, 1523ms total)
T15D4 064:252 JLINK_ReadReg(CFBP)  returns 0x00000000 (0000ms, 1523ms total)
T2084 064:269 JLINK_ReadMem (0x00000182, 0x0002 Bytes, ...) -- CPU_ReadMem(64 bytes @ 0x00000180) -- Updating DA cache (64 bytes @ 0x00000180) -- Read from DA cache (2 bytes @ 0x00000182) - Data: 80 47  returns 0x00 (0001ms, 1524ms total)
T2084 064:271 JLINK_ReadMem (0x00000184, 0x003C Bytes, ...) -- Read from DA cache (60 bytes @ 0x00000184) - Data: 04 48 00 47 FE E7 FE E7 FE E7 FE E7 FE E7 FE E7 ...  returns 0x00 (0000ms, 1525ms total)
T15D4 065:365 JLINK_Step() -- Read from DA cache (2 bytes @ 0x00000182) -- CPU_ReadMem(4 bytes @ 0xE0001004) -- Simulated  returns 0x00 (0004ms, 1529ms total)
T15D4 065:369 JLINK_ReadReg(R15 (PC))  returns 0x00001964 (0000ms, 1529ms total)
T15D4 065:369 JLINK_ReadReg(XPSR)  returns 0xC1000000 (0000ms, 1529ms total)
T15D4 065:369 JLINK_ReadMem (0x00001964, 0x003C Bytes, ...) -- CPU_ReadMem(128 bytes @ 0x00001940) -- Updating DA cache (128 bytes @ 0x00001940) -- Read from DA cache (60 bytes @ 0x00001964) - Data: 02 49 01 48 08 60 70 47 00 12 7A 00 00 00 00 20 ...  returns 0x00 (0002ms, 1531ms total)
T15D4 065:371 JLINK_Step() -- Read from DA cache (2 bytes @ 0x00001964) -- Not simulated -- CPU_WriteMem(4 bytes @ 0xE0001004)  returns 0x00 (0006ms, 1537ms total)
T15D4 065:377 JLINK_ReadReg(R15 (PC))  returns 0x00001966 (0000ms, 1537ms total)
T15D4 065:377 JLINK_ReadReg(XPSR)  returns 0xC1000000 (0000ms, 1537ms total)
T15D4 065:377 JLINK_Step() -- CPU_ReadMem(64 bytes @ 0x00001940) -- Updating DA cache (64 bytes @ 0x00001940) -- Read from DA cache (2 bytes @ 0x00001966) -- CPU_ReadMem(4 bytes @ 0xE0001004) -- Not simulated  returns 0x00 (0008ms, 1545ms total)
T15D4 065:385 JLINK_ReadReg(R15 (PC))  returns 0x00001968 (0000ms, 1545ms total)
T15D4 065:385 JLINK_ReadReg(XPSR)  returns 0xC1000000 (0000ms, 1545ms total)
T15D4 065:385 JLINK_Step() -- CPU_ReadMem(64 bytes @ 0x00001940) -- Updating DA cache (64 bytes @ 0x00001940) -- Read from DA cache (2 bytes @ 0x00001968) -- CPU_ReadMem(4 bytes @ 0xE0001004) -- Not simulated  returns 0x00 (0008ms, 1553ms total)
T15D4 065:393 JLINK_ReadReg(R15 (PC))  returns 0x0000196A (0000ms, 1553ms total)
T15D4 065:393 JLINK_ReadReg(XPSR)  returns 0xC1000000 (0000ms, 1553ms total)
T15D4 065:393 JLINK_ReadReg(R0)  returns 0x007A1200 (0000ms, 1553ms total)
T15D4 065:393 JLINK_ReadReg(R1)  returns 0x20000000 (0000ms, 1553ms total)
T15D4 065:393 JLINK_ReadReg(R2)  returns 0x00000000 (0000ms, 1553ms total)
T15D4 065:393 JLINK_ReadReg(R3)  returns 0x00001F03 (0000ms, 1553ms total)
T15D4 065:393 JLINK_ReadReg(R4)  returns 0x0000E54C (0000ms, 1553ms total)
T15D4 065:393 JLINK_ReadReg(R5)  returns 0x00000001 (0000ms, 1553ms total)
T15D4 065:393 JLINK_ReadReg(R6)  returns 0x0000E54C (0000ms, 1553ms total)
T15D4 065:393 JLINK_ReadReg(R7)  returns 0x00000001 (0000ms, 1553ms total)
T15D4 065:393 JLINK_ReadReg(R8)  returns 0x08080808 (0000ms, 1553ms total)
T15D4 065:393 JLINK_ReadReg(R9)  returns 0x09090909 (0000ms, 1553ms total)
T15D4 065:393 JLINK_ReadReg(R10)  returns 0x10101010 (0000ms, 1553ms total)
T15D4 065:393 JLINK_ReadReg(R11)  returns 0x11111111 (0000ms, 1553ms total)
T15D4 065:393 JLINK_ReadReg(R12)  returns 0x00002B58 (0000ms, 1553ms total)
T15D4 065:393 JLINK_ReadReg(R13 (SP))  returns 0x20007C50 (0000ms, 1553ms total)
T15D4 065:393 JLINK_ReadReg(R14)  returns 0x00000185 (0000ms, 1553ms total)
T15D4 065:393 JLINK_ReadReg(R15 (PC))  returns 0x0000196A (0001ms, 1554ms total)
T15D4 065:394 JLINK_ReadReg(XPSR)  returns 0xC1000000 (0000ms, 1554ms total)
T15D4 065:394 JLINK_ReadReg(MSP)  returns 0x20007C50 (0000ms, 1554ms total)
T15D4 065:394 JLINK_ReadReg(PSP)  returns 0x20002C10 (0000ms, 1554ms total)
T15D4 065:394 JLINK_ReadReg(CFBP)  returns 0x00000000 (0000ms, 1554ms total)
T2084 065:411 JLINK_ReadMem (0x0000196A, 0x0002 Bytes, ...) -- CPU_ReadMem(64 bytes @ 0x00001940) -- Updating DA cache (64 bytes @ 0x00001940) -- Read from DA cache (2 bytes @ 0x0000196A) - Data: 70 47  returns 0x00 (0001ms, 1555ms total)
T2084 065:412 JLINK_ReadMem (0x0000196C, 0x003C Bytes, ...) -- CPU_ReadMem(64 bytes @ 0x00001980) -- Updating DA cache (64 bytes @ 0x00001980) -- Read from DA cache (60 bytes @ 0x0000196C) - Data: 00 12 7A 00 00 00 00 20 10 B5 02 49 00 20 00 F0 ...  returns 0x00 (0002ms, 1557ms total)
T15D4 066:732 JLINK_Step() -- Read from DA cache (2 bytes @ 0x0000196A) -- CPU_ReadMem(4 bytes @ 0xE0001004) -- Simulated  returns 0x00 (0004ms, 1561ms total)
T15D4 066:736 JLINK_ReadReg(R15 (PC))  returns 0x00000184 (0000ms, 1561ms total)
T15D4 066:736 JLINK_ReadReg(XPSR)  returns 0xC1000000 (0000ms, 1561ms total)
T15D4 066:736 JLINK_ReadReg(R0)  returns 0x007A1200 (0000ms, 1561ms total)
T15D4 066:736 JLINK_ReadReg(R1)  returns 0x20000000 (0000ms, 1561ms total)
T15D4 066:736 JLINK_ReadReg(R2)  returns 0x00000000 (0000ms, 1561ms total)
T15D4 066:736 JLINK_ReadReg(R3)  returns 0x00001F03 (0000ms, 1561ms total)
T15D4 066:736 JLINK_ReadReg(R4)  returns 0x0000E54C (0000ms, 1561ms total)
T15D4 066:736 JLINK_ReadReg(R5)  returns 0x00000001 (0000ms, 1561ms total)
T15D4 066:736 JLINK_ReadReg(R6)  returns 0x0000E54C (0000ms, 1561ms total)
T15D4 066:736 JLINK_ReadReg(R7)  returns 0x00000001 (0000ms, 1561ms total)
T15D4 066:736 JLINK_ReadReg(R8)  returns 0x08080808 (0000ms, 1561ms total)
T15D4 066:736 JLINK_ReadReg(R9)  returns 0x09090909 (0000ms, 1561ms total)
T15D4 066:736 JLINK_ReadReg(R10)  returns 0x10101010 (0000ms, 1561ms total)
T15D4 066:736 JLINK_ReadReg(R11)  returns 0x11111111 (0000ms, 1561ms total)
T15D4 066:736 JLINK_ReadReg(R12)  returns 0x00002B58 (0000ms, 1561ms total)
T15D4 066:736 JLINK_ReadReg(R13 (SP))  returns 0x20007C50 (0000ms, 1561ms total)
T15D4 066:736 JLINK_ReadReg(R14)  returns 0x00000185 (0000ms, 1561ms total)
T15D4 066:736 JLINK_ReadReg(R15 (PC))  returns 0x00000184 (0000ms, 1561ms total)
T15D4 066:736 JLINK_ReadReg(XPSR)  returns 0xC1000000 (0000ms, 1561ms total)
T15D4 066:736 JLINK_ReadReg(MSP)  returns 0x20007C50 (0000ms, 1561ms total)
T15D4 066:736 JLINK_ReadReg(PSP)  returns 0x20002C10 (0000ms, 1561ms total)
T15D4 066:736 JLINK_ReadReg(CFBP)  returns 0x00000000 (0000ms, 1561ms total)
T2084 066:746 JLINK_ReadMem (0x00000184, 0x003C Bytes, ...) -- CPU_ReadMem(64 bytes @ 0x00000180) -- Updating DA cache (64 bytes @ 0x00000180) -- Read from DA cache (60 bytes @ 0x00000184) - Data: 04 48 00 47 FE E7 FE E7 FE E7 FE E7 FE E7 FE E7 ...  returns 0x00 (0001ms, 1562ms total)
T15D4 067:822 JLINK_Step() -- Read from DA cache (2 bytes @ 0x00000184) -- Not simulated -- CPU_WriteMem(4 bytes @ 0xE0001004)  returns 0x00 (0011ms, 1573ms total)
T15D4 067:833 JLINK_ReadReg(R15 (PC))  returns 0x00000186 (0000ms, 1573ms total)
T15D4 067:833 JLINK_ReadReg(XPSR)  returns 0xC1000000 (0000ms, 1573ms total)
T15D4 067:833 JLINK_ReadReg(R0)  returns 0x000000C1 (0000ms, 1573ms total)
T15D4 067:833 JLINK_ReadReg(R1)  returns 0x20000000 (0000ms, 1573ms total)
T15D4 067:833 JLINK_ReadReg(R2)  returns 0x00000000 (0000ms, 1573ms total)
T15D4 067:833 JLINK_ReadReg(R3)  returns 0x00001F03 (0000ms, 1573ms total)
T15D4 067:833 JLINK_ReadReg(R4)  returns 0x0000E54C (0000ms, 1573ms total)
T15D4 067:833 JLINK_ReadReg(R5)  returns 0x00000001 (0000ms, 1573ms total)
T15D4 067:833 JLINK_ReadReg(R6)  returns 0x0000E54C (0000ms, 1573ms total)
T15D4 067:833 JLINK_ReadReg(R7)  returns 0x00000001 (0000ms, 1573ms total)
T15D4 067:833 JLINK_ReadReg(R8)  returns 0x08080808 (0000ms, 1573ms total)
T15D4 067:833 JLINK_ReadReg(R9)  returns 0x09090909 (0000ms, 1573ms total)
T15D4 067:833 JLINK_ReadReg(R10)  returns 0x10101010 (0000ms, 1573ms total)
T15D4 067:833 JLINK_ReadReg(R11)  returns 0x11111111 (0000ms, 1573ms total)
T15D4 067:833 JLINK_ReadReg(R12)  returns 0x00002B58 (0000ms, 1573ms total)
T15D4 067:833 JLINK_ReadReg(R13 (SP))  returns 0x20007C50 (0000ms, 1573ms total)
T15D4 067:834 JLINK_ReadReg(R14)  returns 0x00000185 (0000ms, 1574ms total)
T15D4 067:834 JLINK_ReadReg(R15 (PC))  returns 0x00000186 (0000ms, 1574ms total)
T15D4 067:834 JLINK_ReadReg(XPSR)  returns 0xC1000000 (0000ms, 1574ms total)
T15D4 067:834 JLINK_ReadReg(MSP)  returns 0x20007C50 (0000ms, 1574ms total)
T15D4 067:834 JLINK_ReadReg(PSP)  returns 0x20002C10 (0000ms, 1574ms total)
T15D4 067:834 JLINK_ReadReg(CFBP)  returns 0x00000000 (0000ms, 1574ms total)
T15D4 068:408 JLINK_ReadMem (0x00000186, 0x0002 Bytes, ...) -- CPU_ReadMem(64 bytes @ 0x00000180) -- Updating DA cache (64 bytes @ 0x00000180) -- Read from DA cache (2 bytes @ 0x00000186) - Data: 00 47  returns 0x00 (0002ms, 1576ms total)
T15D4 068:410 JLINK_ReadMem (0x00000188, 0x003C Bytes, ...) -- CPU_ReadMem(64 bytes @ 0x000001C0) -- Updating DA cache (64 bytes @ 0x000001C0) -- Read from DA cache (60 bytes @ 0x00000188) - Data: FE E7 FE E7 FE E7 FE E7 FE E7 FE E7 65 19 00 00 ...  returns 0x00 (0001ms, 1577ms total)
T15D4 068:411 JLINK_Step() -- Read from DA cache (2 bytes @ 0x00000186) -- CPU_ReadMem(4 bytes @ 0xE0001004) -- Simulated  returns 0x00 (0002ms, 1579ms total)
T15D4 068:413 JLINK_ReadReg(R15 (PC))  returns 0x000000C0 (0000ms, 1579ms total)
T15D4 068:413 JLINK_ReadReg(XPSR)  returns 0xC1000000 (0000ms, 1579ms total)
T15D4 068:414 JLINK_ReadMem (0x000000BE, 0x0002 Bytes, ...) -- CPU_ReadMem(64 bytes @ 0x00000080) -- Updating DA cache (64 bytes @ 0x00000080) -- Read from DA cache (2 bytes @ 0x000000BE) - Data: 00 00  returns 0x00 (0001ms, 1580ms total)
T15D4 068:415 JLINK_ReadMem (0x000000C0, 0x003C Bytes, ...) -- CPU_ReadMem(64 bytes @ 0x000000C0) -- Updating DA cache (64 bytes @ 0x000000C0) -- Read from DA cache (60 bytes @ 0x000000C0) - Data: 03 48 85 46 00 F0 BC FC 00 48 00 47 09 BD 00 00 ...  returns 0x00 (0002ms, 1582ms total)
T15D4 068:417 JLINK_Step() -- Read from DA cache (2 bytes @ 0x000000C0) -- Not simulated -- CPU_WriteMem(4 bytes @ 0xE0001004)  returns 0x00 (0007ms, 1589ms total)
T15D4 068:424 JLINK_ReadReg(R15 (PC))  returns 0x000000C2 (0000ms, 1589ms total)
T15D4 068:424 JLINK_ReadReg(XPSR)  returns 0xC1000000 (0000ms, 1589ms total)
T15D4 068:424 JLINK_Step() -- CPU_ReadMem(64 bytes @ 0x000000C0) -- Updating DA cache (64 bytes @ 0x000000C0) -- Read from DA cache (2 bytes @ 0x000000C2) -- CPU_ReadMem(4 bytes @ 0xE0001004) -- Simulated  returns 0x00 (0003ms, 1592ms total)
T15D4 068:427 JLINK_ReadReg(R15 (PC))  returns 0x000000C4 (0000ms, 1592ms total)
T15D4 068:427 JLINK_ReadReg(XPSR)  returns 0xC1000000 (0000ms, 1592ms total)
T15D4 068:427 JLINK_Step() -- Read from DA cache (2 bytes @ 0x000000C4) -- Not simulated -- CPU_WriteMem(4 bytes @ 0xE0001004)  returns 0x00 (0007ms, 1599ms total)
T15D4 068:434 JLINK_ReadReg(R15 (PC))  returns 0x00000A40 (0000ms, 1599ms total)
T15D4 068:434 JLINK_ReadReg(XPSR)  returns 0xC1000000 (0000ms, 1599ms total)
T15D4 068:434 JLINK_Step() -- CPU_ReadMem(64 bytes @ 0x00000A40) -- Updating DA cache (64 bytes @ 0x00000A40) -- Read from DA cache (2 bytes @ 0x00000A40) -- CPU_ReadMem(4 bytes @ 0xE0001004) -- Not simulated  returns 0x00 (0008ms, 1607ms total)
T15D4 068:442 JLINK_ReadReg(R15 (PC))  returns 0x00000A42 (0000ms, 1607ms total)
T15D4 068:442 JLINK_ReadReg(XPSR)  returns 0xC1000000 (0000ms, 1607ms total)
T15D4 068:442 JLINK_Step() -- CPU_ReadMem(64 bytes @ 0x00000A40) -- Updating DA cache (64 bytes @ 0x00000A40) -- Read from DA cache (2 bytes @ 0x00000A42) -- CPU_ReadMem(4 bytes @ 0xE0001004) -- Simulated  returns 0x00 (0003ms, 1610ms total)
T15D4 068:445 JLINK_ReadReg(R15 (PC))  returns 0x00000A44 (0000ms, 1610ms total)
T15D4 068:445 JLINK_ReadReg(XPSR)  returns 0x01000000 (0000ms, 1610ms total)
T15D4 068:445 JLINK_Step() -- Read from DA cache (2 bytes @ 0x00000A44) -- Not simulated -- CPU_WriteMem(4 bytes @ 0xE0001004)  returns 0x00 (0007ms, 1617ms total)
T15D4 068:452 JLINK_ReadReg(R15 (PC))  returns 0x00000A46 (0000ms, 1617ms total)
T15D4 068:452 JLINK_ReadReg(XPSR)  returns 0x01000000 (0000ms, 1617ms total)
T15D4 068:452 JLINK_Step() -- CPU_ReadMem(64 bytes @ 0x00000A40) -- Updating DA cache (64 bytes @ 0x00000A40) -- Read from DA cache (2 bytes @ 0x00000A46) -- CPU_ReadMem(4 bytes @ 0xE0001004) -- Simulated  returns 0x00 (0003ms, 1620ms total)
T15D4 068:455 JLINK_ReadReg(R15 (PC))  returns 0x00000A54 (0000ms, 1620ms total)
T15D4 068:455 JLINK_ReadReg(XPSR)  returns 0x01000000 (0000ms, 1620ms total)
T15D4 068:455 JLINK_SetBPEx(Addr = 0x000000C8, Type = 0xFFFFFFF2)  returns 0x00000002 (0000ms, 1620ms total)
T15D4 068:455 JLINK_Go() -- CPU_WriteMem(4 bytes @ 0xE0002000) -- CPU_ReadMem(4 bytes @ 0xE0001000) -- CPU_WriteMem(4 bytes @ 0xE0001000) -- CPU_WriteMem(4 bytes @ 0xE0002008) -- CPU_WriteMem(4 bytes @ 0xE0001004) (0009ms, 1629ms total)
T15D4 068:564 JLINK_IsHalted()  returns TRUE (0004ms, 1633ms total)
T15D4 068:568 JLINK_Halt()  returns 0x00 (0000ms, 1629ms total)
T15D4 068:568 JLINK_IsHalted()  returns TRUE (0000ms, 1629ms total)
T15D4 068:568 JLINK_IsHalted()  returns TRUE (0000ms, 1629ms total)
T15D4 068:568 JLINK_IsHalted()  returns TRUE (0000ms, 1629ms total)
T15D4 068:568 JLINK_ReadReg(R15 (PC))  returns 0x000000C8 (0000ms, 1629ms total)
T15D4 068:568 JLINK_ReadReg(XPSR)  returns 0x61000000 (0000ms, 1629ms total)
T15D4 068:568 JLINK_ClrBPEx(BPHandle = 0x00000002)  returns 0x00 (0000ms, 1629ms total)
T15D4 068:568 JLINK_ReadMemU32(0xE000ED30, 0x0001 Items, ...) -- CPU_ReadMem(4 bytes @ 0xE000ED30) - Data: 02 00 00 00  returns 0x01 (0002ms, 1631ms total)
T15D4 068:570 JLINK_ReadMemU32(0xE0001028, 0x0001 Items, ...) -- CPU_ReadMem(4 bytes @ 0xE0001028) - Data: 00 00 00 00  returns 0x01 (0001ms, 1632ms total)
T15D4 068:571 JLINK_ReadReg(R0)  returns 0x00000000 (0000ms, 1632ms total)
T15D4 068:571 JLINK_ReadReg(R1)  returns 0x20007C50 (0000ms, 1632ms total)
T15D4 068:571 JLINK_ReadReg(R2)  returns 0x00000000 (0000ms, 1632ms total)
T15D4 068:571 JLINK_ReadReg(R3)  returns 0x00001F03 (0000ms, 1632ms total)
T15D4 068:571 JLINK_ReadReg(R4)  returns 0x0000E54C (0000ms, 1632ms total)
T15D4 068:571 JLINK_ReadReg(R5)  returns 0x00000001 (0000ms, 1632ms total)
T15D4 068:571 JLINK_ReadReg(R6)  returns 0x0000E54C (0000ms, 1632ms total)
T15D4 068:571 JLINK_ReadReg(R7)  returns 0x00000001 (0000ms, 1632ms total)
T15D4 068:571 JLINK_ReadReg(R8)  returns 0x08080808 (0000ms, 1632ms total)
T15D4 068:571 JLINK_ReadReg(R9)  returns 0x09090909 (0001ms, 1633ms total)
T15D4 068:572 JLINK_ReadReg(R10)  returns 0x10101010 (0000ms, 1633ms total)
T15D4 068:572 JLINK_ReadReg(R11)  returns 0x11111111 (0000ms, 1633ms total)
T15D4 068:572 JLINK_ReadReg(R12)  returns 0x00002B58 (0000ms, 1633ms total)
T15D4 068:572 JLINK_ReadReg(R13 (SP))  returns 0x20007C50 (0000ms, 1633ms total)
T15D4 068:572 JLINK_ReadReg(R14)  returns 0x00000A5D (0000ms, 1633ms total)
T15D4 068:572 JLINK_ReadReg(R15 (PC))  returns 0x000000C8 (0000ms, 1633ms total)
T15D4 068:572 JLINK_ReadReg(XPSR)  returns 0x61000000 (0000ms, 1633ms total)
T15D4 068:572 JLINK_ReadReg(MSP)  returns 0x20007C50 (0000ms, 1633ms total)
T15D4 068:572 JLINK_ReadReg(PSP)  returns 0x20002C10 (0000ms, 1633ms total)
T15D4 068:572 JLINK_ReadReg(CFBP)  returns 0x00000000 (0000ms, 1633ms total)
T2084 068:579 JLINK_ReadMem (0x000000C8, 0x003C Bytes, ...) -- CPU_ReadMem(128 bytes @ 0x000000C0) -- Updating DA cache (128 bytes @ 0x000000C0) -- Read from DA cache (60 bytes @ 0x000000C8) - Data: 00 48 00 47 09 BD 00 00 50 7C 00 20 EF F3 10 80 ...  returns 0x00 (0002ms, 1635ms total)
T15D4 069:839 JLINK_Step() -- Read from DA cache (2 bytes @ 0x000000C8) -- CPU_ReadMem(4 bytes @ 0xE0001004) -- Not simulated -- CPU_WriteMem(4 bytes @ 0xE0002008)  returns 0x00 (0009ms, 1644ms total)
T15D4 069:848 JLINK_ReadReg(R15 (PC))  returns 0x000000CA (0000ms, 1644ms total)
T15D4 069:848 JLINK_ReadReg(XPSR)  returns 0x61000000 (0000ms, 1644ms total)
T15D4 069:848 JLINK_ReadReg(R0)  returns 0x0000BD09 (0000ms, 1644ms total)
T15D4 069:848 JLINK_ReadReg(R1)  returns 0x20007C50 (0000ms, 1644ms total)
T15D4 069:848 JLINK_ReadReg(R2)  returns 0x00000000 (0000ms, 1644ms total)
T15D4 069:848 JLINK_ReadReg(R3)  returns 0x00001F03 (0000ms, 1644ms total)
T15D4 069:848 JLINK_ReadReg(R4)  returns 0x0000E54C (0000ms, 1644ms total)
T15D4 069:848 JLINK_ReadReg(R5)  returns 0x00000001 (0000ms, 1644ms total)
T15D4 069:848 JLINK_ReadReg(R6)  returns 0x0000E54C (0000ms, 1644ms total)
T15D4 069:848 JLINK_ReadReg(R7)  returns 0x00000001 (0000ms, 1644ms total)
T15D4 069:848 JLINK_ReadReg(R8)  returns 0x08080808 (0000ms, 1644ms total)
T15D4 069:848 JLINK_ReadReg(R9)  returns 0x09090909 (0000ms, 1644ms total)
T15D4 069:848 JLINK_ReadReg(R10)  returns 0x10101010 (0000ms, 1644ms total)
T15D4 069:848 JLINK_ReadReg(R11)  returns 0x11111111 (0000ms, 1644ms total)
T15D4 069:848 JLINK_ReadReg(R12)  returns 0x00002B58 (0000ms, 1644ms total)
T15D4 069:848 JLINK_ReadReg(R13 (SP))  returns 0x20007C50 (0000ms, 1644ms total)
T15D4 069:848 JLINK_ReadReg(R14)  returns 0x00000A5D (0000ms, 1644ms total)
T15D4 069:848 JLINK_ReadReg(R15 (PC))  returns 0x000000CA (0000ms, 1644ms total)
T15D4 069:848 JLINK_ReadReg(XPSR)  returns 0x61000000 (0000ms, 1644ms total)
T15D4 069:848 JLINK_ReadReg(MSP)  returns 0x20007C50 (0000ms, 1644ms total)
T15D4 069:848 JLINK_ReadReg(PSP)  returns 0x20002C10 (0000ms, 1644ms total)
T15D4 069:848 JLINK_ReadReg(CFBP)  returns 0x00000000 (0000ms, 1644ms total)
T15D4 070:632 JLINK_Step() -- CPU_ReadMem(64 bytes @ 0x000000C0) -- Updating DA cache (64 bytes @ 0x000000C0) -- Read from DA cache (2 bytes @ 0x000000CA) -- CPU_ReadMem(4 bytes @ 0xE0001004) -- Simulated  returns 0x00 (0004ms, 1648ms total)
T15D4 070:636 JLINK_ReadReg(R15 (PC))  returns 0x0000BD08 (0000ms, 1648ms total)
T15D4 070:636 JLINK_ReadReg(XPSR)  returns 0x61000000 (0000ms, 1648ms total)
T15D4 070:636 JLINK_ReadReg(R0)  returns 0x0000BD09 (0000ms, 1648ms total)
T15D4 070:636 JLINK_ReadReg(R1)  returns 0x20007C50 (0000ms, 1648ms total)
T15D4 070:636 JLINK_ReadReg(R2)  returns 0x00000000 (0000ms, 1648ms total)
T15D4 070:636 JLINK_ReadReg(R3)  returns 0x00001F03 (0000ms, 1648ms total)
T15D4 070:636 JLINK_ReadReg(R4)  returns 0x0000E54C (0000ms, 1648ms total)
T15D4 070:636 JLINK_ReadReg(R5)  returns 0x00000001 (0000ms, 1648ms total)
T15D4 070:636 JLINK_ReadReg(R6)  returns 0x0000E54C (0000ms, 1648ms total)
T15D4 070:636 JLINK_ReadReg(R7)  returns 0x00000001 (0000ms, 1648ms total)
T15D4 070:636 JLINK_ReadReg(R8)  returns 0x08080808 (0000ms, 1648ms total)
T15D4 070:636 JLINK_ReadReg(R9)  returns 0x09090909 (0000ms, 1648ms total)
T15D4 070:636 JLINK_ReadReg(R10)  returns 0x10101010 (0000ms, 1648ms total)
T15D4 070:636 JLINK_ReadReg(R11)  returns 0x11111111 (0000ms, 1648ms total)
T15D4 070:636 JLINK_ReadReg(R12)  returns 0x00002B58 (0000ms, 1648ms total)
T15D4 070:636 JLINK_ReadReg(R13 (SP))  returns 0x20007C50 (0000ms, 1648ms total)
T15D4 070:636 JLINK_ReadReg(R14)  returns 0x00000A5D (0000ms, 1648ms total)
T15D4 070:636 JLINK_ReadReg(R15 (PC))  returns 0x0000BD08 (0000ms, 1648ms total)
T15D4 070:636 JLINK_ReadReg(XPSR)  returns 0x61000000 (0000ms, 1648ms total)
T15D4 070:636 JLINK_ReadReg(MSP)  returns 0x20007C50 (0000ms, 1648ms total)
T15D4 070:636 JLINK_ReadReg(PSP)  returns 0x20002C10 (0000ms, 1648ms total)
T15D4 070:636 JLINK_ReadReg(CFBP)  returns 0x00000000 (0000ms, 1648ms total)
T2084 070:647 JLINK_ReadMem (0x0000BD08, 0x003C Bytes, ...) -- CPU_ReadMem(128 bytes @ 0x0000BD00) -- Updating DA cache (128 bytes @ 0x0000BD00) -- Read from DA cache (60 bytes @ 0x0000BD08) - Data: 10 B5 00 F0 47 FE 00 20 10 BD 10 B5 F7 F7 B4 FA ...  returns 0x00 (0002ms, 1650ms total)
T15D4 075:454 JLINK_Step() -- Read from DA cache (2 bytes @ 0x0000BD08) -- Not simulated -- CPU_WriteMem(4 bytes @ 0xE0001004)  returns 0x00 (0009ms, 1659ms total)
T15D4 075:463 JLINK_ReadReg(R15 (PC))  returns 0x0000BD0A (0000ms, 1659ms total)
T15D4 075:463 JLINK_ReadReg(XPSR)  returns 0x61000000 (0000ms, 1659ms total)
T15D4 075:463 JLINK_ReadReg(R0)  returns 0x0000BD09 (0000ms, 1659ms total)
T15D4 075:463 JLINK_ReadReg(R1)  returns 0x20007C50 (0000ms, 1659ms total)
T15D4 075:463 JLINK_ReadReg(R2)  returns 0x00000000 (0000ms, 1659ms total)
T15D4 075:463 JLINK_ReadReg(R3)  returns 0x00001F03 (0000ms, 1659ms total)
T15D4 075:463 JLINK_ReadReg(R4)  returns 0x0000E54C (0000ms, 1659ms total)
T15D4 075:463 JLINK_ReadReg(R5)  returns 0x00000001 (0000ms, 1659ms total)
T15D4 075:463 JLINK_ReadReg(R6)  returns 0x0000E54C (0000ms, 1659ms total)
T15D4 075:463 JLINK_ReadReg(R7)  returns 0x00000001 (0000ms, 1659ms total)
T15D4 075:463 JLINK_ReadReg(R8)  returns 0x08080808 (0000ms, 1659ms total)
T15D4 075:463 JLINK_ReadReg(R9)  returns 0x09090909 (0000ms, 1659ms total)
T15D4 075:463 JLINK_ReadReg(R10)  returns 0x10101010 (0000ms, 1659ms total)
T15D4 075:463 JLINK_ReadReg(R11)  returns 0x11111111 (0001ms, 1660ms total)
T15D4 075:464 JLINK_ReadReg(R12)  returns 0x00002B58 (0000ms, 1660ms total)
T15D4 075:464 JLINK_ReadReg(R13 (SP))  returns 0x20007C48 (0000ms, 1660ms total)
T15D4 075:464 JLINK_ReadReg(R14)  returns 0x00000A5D (0000ms, 1660ms total)
T15D4 075:464 JLINK_ReadReg(R15 (PC))  returns 0x0000BD0A (0000ms, 1660ms total)
T15D4 075:464 JLINK_ReadReg(XPSR)  returns 0x61000000 (0000ms, 1660ms total)
T15D4 075:464 JLINK_ReadReg(MSP)  returns 0x20007C48 (0000ms, 1660ms total)
T15D4 075:464 JLINK_ReadReg(PSP)  returns 0x20002C10 (0000ms, 1660ms total)
T15D4 075:464 JLINK_ReadReg(CFBP)  returns 0x00000000 (0000ms, 1660ms total)
T2084 075:464 JLINK_ReadMem (0x20007C4C, 0x0004 Bytes, ...) -- CPU_ReadMem(4 bytes @ 0x20007C4C) - Data: 5D 0A 00 00  returns 0x00 (0001ms, 1661ms total)
T2084 075:469 JLINK_ReadMem (0x0000BD0A, 0x0002 Bytes, ...) -- CPU_ReadMem(64 bytes @ 0x0000BD00) -- Updating DA cache (64 bytes @ 0x0000BD00) -- Read from DA cache (2 bytes @ 0x0000BD0A) - Data: 00 F0  returns 0x00 (0001ms, 1662ms total)
T2084 075:470 JLINK_ReadMem (0x0000BD0C, 0x003C Bytes, ...) -- CPU_ReadMem(64 bytes @ 0x0000BD40) -- Updating DA cache (64 bytes @ 0x0000BD40) -- Read from DA cache (60 bytes @ 0x0000BD0C) - Data: 47 FE 00 20 10 BD 10 B5 F7 F7 B4 FA 10 BD 00 00 ...  returns 0x00 (0002ms, 1664ms total)
T15D4 076:038 JLINK_Step() -- Read from DA cache (2 bytes @ 0x0000BD0A) -- CPU_ReadMem(4 bytes @ 0xE0001004) -- Not simulated  returns 0x00 (0008ms, 1672ms total)
T15D4 076:046 JLINK_ReadReg(R15 (PC))  returns 0x0000C99C (0000ms, 1672ms total)
T15D4 076:046 JLINK_ReadReg(XPSR)  returns 0x61000000 (0000ms, 1672ms total)
T15D4 076:046 JLINK_ReadReg(R0)  returns 0x0000BD09 (0000ms, 1672ms total)
T15D4 076:046 JLINK_ReadReg(R1)  returns 0x20007C50 (0000ms, 1672ms total)
T15D4 076:046 JLINK_ReadReg(R2)  returns 0x00000000 (0000ms, 1672ms total)
T15D4 076:046 JLINK_ReadReg(R3)  returns 0x00001F03 (0000ms, 1672ms total)
T15D4 076:046 JLINK_ReadReg(R4)  returns 0x0000E54C (0000ms, 1672ms total)
T15D4 076:046 JLINK_ReadReg(R5)  returns 0x00000001 (0000ms, 1672ms total)
T15D4 076:046 JLINK_ReadReg(R6)  returns 0x0000E54C (0000ms, 1672ms total)
T15D4 076:046 JLINK_ReadReg(R7)  returns 0x00000001 (0000ms, 1672ms total)
T15D4 076:046 JLINK_ReadReg(R8)  returns 0x08080808 (0000ms, 1672ms total)
T15D4 076:046 JLINK_ReadReg(R9)  returns 0x09090909 (0000ms, 1672ms total)
T15D4 076:046 JLINK_ReadReg(R10)  returns 0x10101010 (0000ms, 1672ms total)
T15D4 076:046 JLINK_ReadReg(R11)  returns 0x11111111 (0000ms, 1672ms total)
T15D4 076:046 JLINK_ReadReg(R12)  returns 0x00002B58 (0000ms, 1672ms total)
T15D4 076:046 JLINK_ReadReg(R13 (SP))  returns 0x20007C48 (0000ms, 1672ms total)
T15D4 076:046 JLINK_ReadReg(R14)  returns 0x0000BD0F (0001ms, 1673ms total)
T15D4 076:047 JLINK_ReadReg(R15 (PC))  returns 0x0000C99C (0000ms, 1673ms total)
T15D4 076:047 JLINK_ReadReg(XPSR)  returns 0x61000000 (0000ms, 1673ms total)
T15D4 076:047 JLINK_ReadReg(MSP)  returns 0x20007C48 (0000ms, 1673ms total)
T15D4 076:047 JLINK_ReadReg(PSP)  returns 0x20002C10 (0000ms, 1673ms total)
T15D4 076:047 JLINK_ReadReg(CFBP)  returns 0x00000000 (0000ms, 1673ms total)
T2084 076:047 JLINK_ReadMem (0x20007C4C, 0x0004 Bytes, ...) -- CPU_ReadMem(4 bytes @ 0x20007C4C) - Data: 5D 0A 00 00  returns 0x00 (0001ms, 1674ms total)
T2084 076:056 JLINK_ReadMem (0x0000C99C, 0x003C Bytes, ...) -- CPU_ReadMem(128 bytes @ 0x0000C980) -- Updating DA cache (128 bytes @ 0x0000C980) -- Read from DA cache (60 bytes @ 0x0000C99C) - Data: 00 B5 85 B0 F6 F7 D8 F9 01 20 09 49 03 91 C2 02 ...  returns 0x00 (0002ms, 1676ms total)
T15D4 096:093 JLINK_Step() -- Read from DA cache (2 bytes @ 0x0000C99C) -- CPU_ReadMem(4 bytes @ 0xE0001004) -- Not simulated  returns 0x00 (0008ms, 1684ms total)
T15D4 096:101 JLINK_ReadReg(R15 (PC))  returns 0x0000C99E (0000ms, 1684ms total)
T15D4 096:101 JLINK_ReadReg(XPSR)  returns 0x61000000 (0000ms, 1684ms total)
T15D4 096:101 JLINK_Step() -- CPU_ReadMem(64 bytes @ 0x0000C980) -- Updating DA cache (64 bytes @ 0x0000C980) -- Read from DA cache (2 bytes @ 0x0000C99E) -- CPU_ReadMem(4 bytes @ 0xE0001004) -- Simulated  returns 0x00 (0003ms, 1687ms total)
T15D4 096:104 JLINK_ReadReg(R15 (PC))  returns 0x0000C9A0 (0000ms, 1687ms total)
T15D4 096:104 JLINK_ReadReg(XPSR)  returns 0x61000000 (0000ms, 1687ms total)
T15D4 096:104 JLINK_ReadReg(R0)  returns 0x0000BD09 (0000ms, 1687ms total)
T15D4 096:104 JLINK_ReadReg(R1)  returns 0x20007C50 (0000ms, 1687ms total)
T15D4 096:104 JLINK_ReadReg(R2)  returns 0x00000000 (0000ms, 1687ms total)
T15D4 096:104 JLINK_ReadReg(R3)  returns 0x00001F03 (0000ms, 1687ms total)
T15D4 096:104 JLINK_ReadReg(R4)  returns 0x0000E54C (0000ms, 1687ms total)
T15D4 096:104 JLINK_ReadReg(R5)  returns 0x00000001 (0000ms, 1687ms total)
T15D4 096:104 JLINK_ReadReg(R6)  returns 0x0000E54C (0000ms, 1687ms total)
T15D4 096:104 JLINK_ReadReg(R7)  returns 0x00000001 (0000ms, 1687ms total)
T15D4 096:104 JLINK_ReadReg(R8)  returns 0x08080808 (0000ms, 1687ms total)
T15D4 096:104 JLINK_ReadReg(R9)  returns 0x09090909 (0000ms, 1687ms total)
T15D4 096:104 JLINK_ReadReg(R10)  returns 0x10101010 (0000ms, 1687ms total)
T15D4 096:104 JLINK_ReadReg(R11)  returns 0x11111111 (0000ms, 1687ms total)
T15D4 096:104 JLINK_ReadReg(R12)  returns 0x00002B58 (0000ms, 1687ms total)
T15D4 096:104 JLINK_ReadReg(R13 (SP))  returns 0x20007C30 (0000ms, 1687ms total)
T15D4 096:104 JLINK_ReadReg(R14)  returns 0x0000BD0F (0000ms, 1687ms total)
T15D4 096:104 JLINK_ReadReg(R15 (PC))  returns 0x0000C9A0 (0000ms, 1687ms total)
T15D4 096:104 JLINK_ReadReg(XPSR)  returns 0x61000000 (0000ms, 1687ms total)
T15D4 096:104 JLINK_ReadReg(MSP)  returns 0x20007C30 (0001ms, 1688ms total)
T15D4 096:105 JLINK_ReadReg(PSP)  returns 0x20002C10 (0000ms, 1688ms total)
T15D4 096:105 JLINK_ReadReg(CFBP)  returns 0x00000000 (0000ms, 1688ms total)
T2084 096:105 JLINK_ReadMem (0x20007C44, 0x0004 Bytes, ...) -- CPU_ReadMem(4 bytes @ 0x20007C44) - Data: 0F BD 00 00  returns 0x00 (0001ms, 1689ms total)
T2084 096:106 JLINK_ReadMem (0x20007C4C, 0x0004 Bytes, ...) -- CPU_ReadMem(4 bytes @ 0x20007C4C) - Data: 5D 0A 00 00  returns 0x00 (0001ms, 1690ms total)
T2084 096:108 JLINK_ReadMem (0x0000C9A0, 0x003C Bytes, ...) -- CPU_ReadMem(64 bytes @ 0x0000C9C0) -- Updating DA cache (64 bytes @ 0x0000C9C0) -- Read from DA cache (60 bytes @ 0x0000C9A0) - Data: F6 F7 D8 F9 01 20 09 49 03 91 C2 02 00 21 02 92 ...  returns 0x00 (0001ms, 1691ms total)
T15D4 098:000 JLINK_Step() -- Read from DA cache (2 bytes @ 0x0000C9A0) -- Not simulated -- CPU_WriteMem(4 bytes @ 0xE0001004)  returns 0x00 (0015ms, 1706ms total)
T15D4 098:015 JLINK_ReadReg(R15 (PC))  returns 0x00002D54 (0000ms, 1706ms total)
T15D4 098:015 JLINK_ReadReg(XPSR)  returns 0x61000000 (0000ms, 1706ms total)
T15D4 098:015 JLINK_ReadReg(R0)  returns 0x0000BD09 (0000ms, 1706ms total)
T15D4 098:015 JLINK_ReadReg(R1)  returns 0x20007C50 (0000ms, 1706ms total)
T15D4 098:015 JLINK_ReadReg(R2)  returns 0x00000000 (0000ms, 1706ms total)
T15D4 098:015 JLINK_ReadReg(R3)  returns 0x00001F03 (0000ms, 1706ms total)
T15D4 098:015 JLINK_ReadReg(R4)  returns 0x0000E54C (0000ms, 1706ms total)
T15D4 098:015 JLINK_ReadReg(R5)  returns 0x00000001 (0000ms, 1706ms total)
T15D4 098:015 JLINK_ReadReg(R6)  returns 0x0000E54C (0000ms, 1706ms total)
T15D4 098:015 JLINK_ReadReg(R7)  returns 0x00000001 (0000ms, 1706ms total)
T15D4 098:015 JLINK_ReadReg(R8)  returns 0x08080808 (0000ms, 1706ms total)
T15D4 098:015 JLINK_ReadReg(R9)  returns 0x09090909 (0000ms, 1706ms total)
T15D4 098:015 JLINK_ReadReg(R10)  returns 0x10101010 (0000ms, 1706ms total)
T15D4 098:015 JLINK_ReadReg(R11)  returns 0x11111111 (0000ms, 1706ms total)
T15D4 098:015 JLINK_ReadReg(R12)  returns 0x00002B58 (0000ms, 1706ms total)
T15D4 098:015 JLINK_ReadReg(R13 (SP))  returns 0x20007C30 (0000ms, 1706ms total)
T15D4 098:015 JLINK_ReadReg(R14)  returns 0x0000C9A5 (0000ms, 1706ms total)
T15D4 098:015 JLINK_ReadReg(R15 (PC))  returns 0x00002D54 (0000ms, 1706ms total)
T15D4 098:015 JLINK_ReadReg(XPSR)  returns 0x61000000 (0000ms, 1706ms total)
T15D4 098:015 JLINK_ReadReg(MSP)  returns 0x20007C30 (0000ms, 1706ms total)
T15D4 098:015 JLINK_ReadReg(PSP)  returns 0x20002C10 (0000ms, 1706ms total)
T15D4 098:015 JLINK_ReadReg(CFBP)  returns 0x00000000 (0000ms, 1706ms total)
T2084 098:015 JLINK_ReadMem (0x20007C44, 0x0004 Bytes, ...) -- CPU_ReadMem(4 bytes @ 0x20007C44) - Data: 0F BD 00 00  returns 0x00 (0002ms, 1708ms total)
T2084 098:017 JLINK_ReadMem (0x20007C4C, 0x0004 Bytes, ...) -- CPU_ReadMem(4 bytes @ 0x20007C4C) - Data: 5D 0A 00 00  returns 0x00 (0001ms, 1709ms total)
T2084 098:028 JLINK_ReadMem (0x00002D54, 0x003C Bytes, ...) -- CPU_ReadMem(128 bytes @ 0x00002D40) -- Updating DA cache (128 bytes @ 0x00002D40) -- Read from DA cache (60 bytes @ 0x00002D54) - Data: 10 B5 07 F0 07 FE 10 BD 70 B5 0D 46 16 46 25 24 ...  returns 0x00 (0002ms, 1711ms total)
T15D4 102:220 JLINK_SetBPEx(Addr = 0x0000C9A4, Type = 0xFFFFFFF2)  returns 0x00000003 (0002ms, 1713ms total)
T15D4 102:222 JLINK_Go() -- CPU_WriteMem(4 bytes @ 0xE0002000) -- CPU_ReadMem(4 bytes @ 0xE0001000) -- CPU_WriteMem(4 bytes @ 0xE0001000) -- CPU_WriteMem(4 bytes @ 0xE0002008) (0005ms, 1718ms total)
T15D4 102:328 JLINK_IsHalted()  returns TRUE (0004ms, 1722ms total)
T15D4 102:332 JLINK_Halt()  returns 0x00 (0000ms, 1718ms total)
T15D4 102:332 JLINK_IsHalted()  returns TRUE (0000ms, 1718ms total)
T15D4 102:332 JLINK_IsHalted()  returns TRUE (0000ms, 1718ms total)
T15D4 102:332 JLINK_IsHalted()  returns TRUE (0000ms, 1718ms total)
T15D4 102:332 JLINK_ReadReg(R15 (PC))  returns 0x0000C9A4 (0000ms, 1718ms total)
T15D4 102:332 JLINK_ReadReg(XPSR)  returns 0x61000000 (0000ms, 1718ms total)
T15D4 102:332 JLINK_ClrBPEx(BPHandle = 0x00000003)  returns 0x00 (0000ms, 1718ms total)
T15D4 102:332 JLINK_ReadMemU32(0xE000ED30, 0x0001 Items, ...) -- CPU_ReadMem(4 bytes @ 0xE000ED30) - Data: 02 00 00 00  returns 0x01 (0001ms, 1719ms total)
T15D4 102:333 JLINK_ReadMemU32(0xE0001028, 0x0001 Items, ...) -- CPU_ReadMem(4 bytes @ 0xE0001028) - Data: 00 00 00 00  returns 0x01 (0001ms, 1720ms total)
T15D4 102:334 JLINK_ReadReg(R0)  returns 0x00000000 (0000ms, 1720ms total)
T15D4 102:334 JLINK_ReadReg(R1)  returns 0x00000005 (0000ms, 1720ms total)
T15D4 102:334 JLINK_ReadReg(R2)  returns 0x00000006 (0000ms, 1720ms total)
T15D4 102:334 JLINK_ReadReg(R3)  returns 0x200061BC (0000ms, 1720ms total)
T15D4 102:334 JLINK_ReadReg(R4)  returns 0x0000E54C (0000ms, 1720ms total)
T15D4 102:334 JLINK_ReadReg(R5)  returns 0x00000001 (0000ms, 1720ms total)
T15D4 102:334 JLINK_ReadReg(R6)  returns 0x0000E54C (0000ms, 1720ms total)
T15D4 102:334 JLINK_ReadReg(R7)  returns 0x00000001 (0000ms, 1720ms total)
T15D4 102:334 JLINK_ReadReg(R8)  returns 0x08080808 (0000ms, 1720ms total)
T15D4 102:334 JLINK_ReadReg(R9)  returns 0x09090909 (0000ms, 1720ms total)
T15D4 102:334 JLINK_ReadReg(R10)  returns 0x10101010 (0000ms, 1720ms total)
T15D4 102:334 JLINK_ReadReg(R11)  returns 0x11111111 (0000ms, 1720ms total)
T15D4 102:334 JLINK_ReadReg(R12)  returns 0x0000B660 (0000ms, 1720ms total)
T15D4 102:334 JLINK_ReadReg(R13 (SP))  returns 0x20007C30 (0000ms, 1720ms total)
T15D4 102:334 JLINK_ReadReg(R14)  returns 0x0000D315 (0000ms, 1720ms total)
T15D4 102:334 JLINK_ReadReg(R15 (PC))  returns 0x0000C9A4 (0000ms, 1720ms total)
T15D4 102:334 JLINK_ReadReg(XPSR)  returns 0x61000000 (0000ms, 1720ms total)
T15D4 102:334 JLINK_ReadReg(MSP)  returns 0x20007C30 (0000ms, 1720ms total)
T15D4 102:334 JLINK_ReadReg(PSP)  returns 0x20002C10 (0000ms, 1720ms total)
T15D4 102:334 JLINK_ReadReg(CFBP)  returns 0x00000000 (0000ms, 1720ms total)
T2084 102:334 JLINK_ReadMem (0x20007C44, 0x0004 Bytes, ...) -- CPU_ReadMem(4 bytes @ 0x20007C44) - Data: 0F BD 00 00  returns 0x00 (0002ms, 1722ms total)
T2084 102:336 JLINK_ReadMem (0x20007C4C, 0x0004 Bytes, ...) -- CPU_ReadMem(4 bytes @ 0x20007C4C) - Data: 5D 0A 00 00  returns 0x00 (0001ms, 1723ms total)
T2084 102:347 JLINK_ReadMem (0x0000C9A4, 0x003C Bytes, ...) -- CPU_ReadMem(128 bytes @ 0x0000C980) -- Updating DA cache (128 bytes @ 0x0000C980) -- Read from DA cache (60 bytes @ 0x0000C9A4) - Data: 01 20 09 49 03 91 C2 02 00 21 02 92 04 90 00 91 ...  returns 0x00 (0002ms, 1725ms total)
T15D4 103:984 JLINK_SetBPEx(Addr = 0x0000BD0E, Type = 0xFFFFFFF2)  returns 0x00000004 (0001ms, 1726ms total)
T15D4 103:985 JLINK_Go() -- CPU_WriteMem(4 bytes @ 0xE0002000) -- CPU_ReadMem(4 bytes @ 0xE0001000) -- CPU_WriteMem(4 bytes @ 0xE0001000) -- CPU_WriteMem(4 bytes @ 0xE0002008) (0006ms, 1732ms total)
T15D4 104:091 JLINK_IsHalted()  returns FALSE (0001ms, 1733ms total)
T15D4 104:192 JLINK_IsHalted()  returns FALSE (0001ms, 1733ms total)
T15D4 104:293 JLINK_IsHalted()  returns FALSE (0001ms, 1733ms total)
T15D4 104:394 JLINK_IsHalted()  returns FALSE (0001ms, 1733ms total)
T15D4 104:495 JLINK_IsHalted()  returns FALSE (0004ms, 1736ms total)
